;$FILEVERSION=1.1
;$STARTTIME=45755.5785498611
;
;   Start time: 08/04/2025 13:53:06.708.0
;   Generated by PCAN-View v5.3.0.942
;
;   Message Number
;   |         Time Offset (ms)
;   |         |        Type
;   |         |        |        ID (hex)
;   |         |        |        |     Data Length
;   |         |        |        |     |   Data Bytes (hex) ...
;   |         |        |        |     |   |
;---+--   ----+----  --+--  ----+---  +  -+ -- -- -- -- -- -- --
     1)       126.5  Rx     18FF0800  8  80 32 00 3A 02 28 00 00 
     2)       176.5  Rx     18FF3000  8  35 00 04 00 39 00 39 00 
     3)       181.5  Rx     0CC8C8C7  8  00 00 00 80 0A 0A 00 00 
     4)       181.8  Rx     0CC7C8C7  8  00 80 00 80 00 80 00 00 
     5)       182.1  Rx     0CC9C8C7  8  00 80 00 80 B4 80 32 80 
     6)       281.5  Rx     18FF0800  8  80 32 00 3A 02 28 00 00 
     7)       426.4  Rx     18FF3000  8  35 00 04 00 39 00 39 00 
     8)       431.4  Rx     0CC8C8C7  8  00 00 00 80 0A 0A 00 00 
     9)       431.8  Rx     0CC7C8C7  8  00 80 00 80 00 80 00 00 
    10)       432.0  Rx     0CC9C8C7  8  00 80 00 80 B4 80 32 80 
    11)       436.5  Rx     18FF0800  8  80 32 00 3A 02 28 00 00 
    12)       591.4  Rx     18FF0800  8  80 32 00 3A 02 28 00 00 
    13)       681.4  Rx     18FF3000  8  35 00 04 00 39 00 39 00 
    14)       686.4  Rx     0CC8C8C7  8  00 00 00 80 0A 0A 00 00 
    15)       686.8  Rx     0CC7C8C7  8  00 80 00 80 00 80 00 00 
    16)       687.0  Rx     0CC9C8C7  8  00 80 00 80 B4 80 32 80 
    17)       746.4  Rx     18FF0800  8  80 32 00 3A 02 28 00 00 
    18)       906.4  Rx     18FF0800  8  80 32 00 3A 02 28 00 00 
    19)       931.4  Rx     18FF3000  8  35 00 04 00 39 00 39 00 
    20)       931.7  Rx     0CC8C8C7  8  00 00 00 80 0A 0A 00 00 
    21)       932.0  Rx     0CC7C8C7  8  00 80 00 80 00 80 00 00 
    22)       932.3  Rx     0CC9C8C7  8  00 80 00 80 B4 80 32 80 
    23)      1061.4  Rx     18FF0800  8  80 32 00 3A 02 28 00 00 
    24)      1176.4  Rx     18FF3000  8  35 00 04 00 39 00 39 00 
    25)      1181.4  Rx     0CC8C8C7  8  00 00 00 80 0A 0A 00 00 
    26)      1181.7  Rx     0CC7C8C7  8  00 80 00 80 00 80 00 00 
    27)      1182.0  Rx     0CC9C8C7  8  00 80 00 80 B4 80 32 80 
    28)      1216.4  Rx     18FF0800  8  80 32 00 3A 02 28 00 00 
    29)      1371.4  Rx     18FF0800  8  80 32 00 3A 02 28 00 00 
    30)      1426.4  Rx     18FF3000  8  35 00 04 00 39 00 39 00 
    31)      1431.4  Rx     0CC8C8C7  8  00 00 00 80 0A 0A 00 00 
    32)      1431.7  Rx     0CC7C8C7  8  00 80 00 80 00 80 00 00 
    33)      1432.0  Rx     0CC9C8C7  8  00 80 00 80 B4 80 32 80 
    34)      1526.4  Rx     18FF0800  8  80 32 00 3A 02 28 00 00 
    35)      1681.4  Rx     18FF0800  8  80 32 00 3A 02 28 00 00 
    36)      1681.7  Rx     18FF3000  8  35 00 04 00 39 00 39 00 
    37)      1686.4  Rx     0CC8C8C7  8  00 00 00 80 0A 0A 00 00 
    38)      1686.7  Rx     0CC7C8C7  8  00 80 00 80 00 80 00 00 
    39)      1687.0  Rx     0CC9C8C7  8  00 80 00 80 B4 80 32 80 
    40)      1836.3  Rx     18FF0800  8  80 32 00 3A 02 28 00 00 
    41)      1926.3  Rx     18FF3000  8  35 00 04 00 39 00 39 00 
    42)      1931.3  Rx     0CC8C8C7  8  00 00 00 80 0A 0A 00 00 
    43)      1931.6  Rx     0CC7C8C7  8  00 80 00 80 00 80 00 00 
    44)      1931.9  Rx     0CC9C8C7  8  00 80 00 80 B4 80 32 80 
    45)      1991.3  Rx     18FF0800  8  80 32 00 3A 02 28 00 00 
    46)      2146.3  Rx     18FF0800  8  80 32 00 3A 02 28 00 00 
    47)      2176.3  Rx     18FF3000  8  35 00 04 00 39 00 39 00 
    48)      2181.3  Rx     0CC8C8C7  8  00 00 00 80 0A 0A 00 00 
    49)      2181.6  Rx     0CC7C8C7  8  00 80 00 80 00 80 00 00 
    50)      2181.9  Rx     0CC9C8C7  8  00 80 00 80 B4 80 32 80 
    51)      2301.3  Rx     18FF0800  8  80 32 00 3A 02 28 00 00 
    52)      2426.3  Rx     18FF3000  8  35 00 04 00 39 00 39 00 
    53)      2431.3  Rx     0CC8C8C7  8  00 00 00 80 0A 0A 00 00 
    54)      2431.6  Rx     0CC7C8C7  8  00 80 00 80 00 80 00 00 
    55)      2431.9  Rx     0CC9C8C7  8  00 80 00 80 B4 80 32 80 
    56)      2456.3  Rx     18FF0800  8  80 32 00 3A 02 28 00 00 
    57)      2611.3  Rx     18FF0800  8  80 32 00 3A 02 28 00 00 
    58)      2681.3  Rx     18FF3000  8  35 00 04 00 39 00 39 00 
    59)      2686.3  Rx     0CC8C8C7  8  00 00 00 80 0A 0A 00 00 
    60)      2686.6  Rx     0CC7C8C7  8  00 80 00 80 00 80 00 00 
    61)      2686.9  Rx     0CC9C8C7  8  00 80 00 80 B4 80 32 80 
    62)      2761.3  Rx     18FF0800  8  80 32 00 3A 02 28 00 00 
    63)      2916.2  Rx     18FF0800  8  80 32 00 3A 02 28 00 00 
    64)      2926.2  Rx     18FF3000  8  35 00 04 00 39 00 39 00 
    65)      2931.2  Rx     0CC8C8C7  8  00 00 00 80 0A 0A 00 00 
    66)      2931.6  Rx     0CC7C8C7  8  00 80 00 80 00 80 00 00 
    67)      2931.9  Rx     0CC9C8C7  8  00 80 00 80 B4 80 32 80 
    68)      3071.2  Rx     18FF0800  8  80 32 00 3A 02 28 00 00 
    69)      3176.2  Rx     18FF3000  8  35 00 04 00 39 00 39 00 
    70)      3181.2  Rx     0CC8C8C7  8  00 00 00 80 0A 0A 00 00 
    71)      3181.5  Rx     0CC7C8C7  8  00 80 00 80 00 80 00 00 
    72)      3181.8  Rx     0CC9C8C7  8  00 80 00 80 B4 80 32 80 
    73)      3226.2  Rx     18FF0800  8  80 32 00 3A 02 28 00 00 
    74)      3376.2  Rx     18FF0800  8  80 32 00 3A 02 28 00 00 
    75)      3426.2  Rx     18FF3000  8  35 00 04 00 39 00 39 00 
    76)      3431.2  Rx     0CC8C8C7  8  00 00 00 80 0A 0A 00 00 
    77)      3431.5  Rx     0CC7C8C7  8  00 80 00 80 00 80 00 00 
    78)      3431.8  Rx     0CC9C8C7  8  00 80 00 80 B4 80 32 80 
    79)      3531.2  Rx     18FF0800  8  80 32 00 3A 02 28 00 00 
    80)      3681.2  Rx     18FF3000  8  35 00 04 00 39 00 39 00 
    81)      3686.2  Rx     0CC8C8C7  8  00 00 00 80 0A 0A 00 00 
    82)      3686.5  Rx     0CC7C8C7  8  00 80 00 80 00 80 00 00 
    83)      3686.8  Rx     0CC9C8C7  8  00 80 00 80 B4 80 32 80 
    84)      3687.1  Rx     18FF0800  8  80 32 00 3A 02 28 00 00 
    85)      3841.2  Rx     18FF0800  8  80 32 00 3A 02 28 00 00 
    86)      3926.2  Rx     18FF3000  8  35 00 04 00 39 00 39 00 
    87)      3931.2  Rx     0CC8C8C7  8  00 00 00 80 0A 0A 00 00 
    88)      3931.5  Rx     0CC7C8C7  8  00 80 00 80 00 80 00 00 
    89)      3931.8  Rx     0CC9C8C7  8  00 80 00 80 B4 80 32 80 
    90)      3996.1  Rx     18FF0800  8  80 32 00 3A 02 28 00 00 
    91)      4151.2  Rx     18FF0800  8  80 32 00 3A 02 28 00 00 
    92)      4176.1  Rx     18FF3000  8  35 00 04 00 39 00 39 00 
    93)      4181.1  Rx     0CC8C8C7  8  00 00 00 80 0A 0A 00 00 
    94)      4181.4  Rx     0CC7C8C7  8  00 80 00 80 00 80 00 00 
    95)      4181.7  Rx     0CC9C8C7  8  00 80 00 80 B4 80 32 80 
    96)      4306.1  Rx     18FF0800  8  80 32 00 3A 02 28 00 00 
    97)      4426.1  Rx     18FF3000  8  35 00 04 00 39 00 39 00 
    98)      4431.1  Rx     0CC8C8C7  8  00 00 00 80 0A 0A 00 00 
    99)      4431.4  Rx     0CC7C8C7  8  00 80 00 80 00 80 00 00 
   100)      4431.7  Rx     0CC9C8C7  8  00 80 00 80 B4 80 32 80 
   101)      4461.1  Rx     18FF0800  8  80 32 00 3A 02 28 00 00 
   102)      4616.1  Rx     18FF0800  8  80 32 00 3A 02 28 00 00 
   103)      4681.1  Rx     18FF3000  8  35 00 04 00 39 00 39 00 
   104)      4681.4  Rx     0CC8C8C7  8  00 00 00 80 0A 0A 00 00 
   105)      4681.7  Rx     0CC7C8C7  8  00 80 00 80 00 80 00 00 
   106)      4682.0  Rx     0CC9C8C7  8  00 80 00 80 B4 80 32 80 
   107)      4771.1  Rx     18FF0800  8  80 32 00 3A 02 28 00 00 
   108)      4926.1  Rx     18FF0800  8  80 32 00 3A 02 28 00 00 
   109)      4926.4  Rx     18FF3000  8  35 00 04 00 39 00 39 00 
   110)      4931.1  Rx     0CC8C8C7  8  00 00 00 80 0A 0A 00 00 
   111)      4931.4  Rx     0CC7C8C7  8  00 80 00 80 00 80 00 00 
   112)      4931.7  Rx     0CC9C8C7  8  00 80 00 80 B4 80 32 80 
   113)      5081.0  Rx     18FF0800  8  80 32 00 3A 02 28 00 00 
   114)      5176.1  Rx     18FF3000  8  35 00 04 00 39 00 39 00 
   115)      5181.1  Rx     0CC8C8C7  8  00 00 00 80 0A 0A 00 00 
   116)      5181.4  Rx     0CC7C8C7  8  00 80 00 80 00 80 00 00 
   117)      5181.7  Rx     0CC9C8C7  8  00 80 00 80 B4 80 32 80 
   118)      5236.1  Rx     18FF0800  8  80 32 00 3A 02 28 00 00 
   119)      5386.1  Rx     18FF0800  8  80 32 00 3A 02 28 00 00 
   120)      5426.1  Rx     18FF3000  8  35 00 04 00 39 00 39 00 
   121)      5431.1  Rx     0CC8C8C7  8  00 00 00 80 0A 0A 00 00 
   122)      5431.4  Rx     0CC7C8C7  8  00 80 00 80 00 80 00 00 
   123)      5431.7  Rx     0CC9C8C7  8  00 80 00 80 B4 80 32 80 
   124)      5541.1  Rx     18FF0800  8  80 32 00 3A 02 28 00 00 
   125)      5681.0  Rx     18FF3000  8  35 00 04 00 39 00 39 00 
   126)      5686.0  Rx     0CC8C8C7  8  00 00 00 80 0A 0A 00 00 
   127)      5686.3  Rx     0CC7C8C7  8  00 80 00 80 00 80 00 00 
   128)      5686.6  Rx     0CC9C8C7  8  00 80 00 80 B4 80 32 80 
   129)      5696.0  Rx     18FF0800  8  80 32 00 3A 02 28 00 00 
   130)      5846.0  Rx     18FF0800  8  80 32 00 3A 02 28 00 00 
   131)      5926.0  Rx     18FF3000  8  35 00 04 00 39 00 39 00 
   132)      5931.0  Rx     0CC8C8C7  8  00 00 00 80 0A 0A 00 00 
   133)      5931.3  Rx     0CC7C8C7  8  00 80 00 80 00 80 00 00 
   134)      5931.6  Rx     0CC9C8C7  8  00 80 00 80 B4 80 32 80 
   135)      6001.0  Rx     18FF0800  8  80 32 00 3A 02 28 00 00 
   136)      6156.0  Rx     18FF0800  8  80 32 00 3A 02 28 00 00 
   137)      6176.0  Rx     18FF3000  8  35 00 04 00 39 00 39 00 
   138)      6181.0  Rx     0CC8C8C7  8  00 00 00 80 0A 0A 00 00 
   139)      6181.3  Rx     0CC7C8C7  8  00 80 00 80 00 80 00 00 
   140)      6181.6  Rx     0CC9C8C7  8  00 80 00 80 B4 80 32 80 
   141)      6311.0  Rx     18FF0800  8  80 32 00 3A 02 28 00 00 
   142)      6426.0  Rx     18FF3000  8  35 00 04 00 39 00 39 00 
   143)      6431.0  Rx     0CC8C8C7  8  00 00 00 80 0A 0A 00 00 
   144)      6431.3  Rx     0CC7C8C7  8  00 80 00 80 00 80 00 00 
   145)      6431.6  Rx     0CC9C8C7  8  00 80 00 80 B4 80 32 80 
   146)      6461.0  Rx     18FF0800  8  80 32 00 3A 02 28 00 00 
   147)      6615.9  Rx     18FF0800  8  80 32 00 3A 02 28 00 00 
   148)      6681.0  Rx     18FF3000  8  35 00 04 00 39 00 39 00 
   149)      6685.9  Rx     0CC8C8C7  8  00 00 00 80 0A 0A 00 00 
   150)      6686.2  Rx     0CC7C8C7  8  00 80 00 80 00 80 00 00 
   151)      6686.5  Rx     0CC9C8C7  8  00 80 00 80 B4 80 32 80 
   152)      6738.8  Error      0004  4  01 02 01 00
   153)      6770.9  Rx     18FF0800  8  80 32 00 3A 02 28 00 00 
   154)      6770.9  Error      0000  4  00 00 00 00
   155)      6925.9  Rx     18FF0800  8  80 32 00 3A 02 28 00 00 
   156)      6926.2  Rx     18FF3000  8  35 00 04 00 39 00 39 00 
   157)      6930.9  Rx     0CC8C8C7  8  00 00 00 80 0A 0A 00 00 
   158)      6931.2  Rx     0CC7C8C7  8  00 80 00 80 00 80 00 00 
   159)      6931.5  Rx     0CC9C8C7  8  00 80 00 80 B4 80 32 80 
   160)      6980.3  Rx     18EEFF00  8  00 00 00 00 00 00 00 00 
   161)      7075.9  Rx     18FF0800  8  80 32 00 3A 02 28 00 00 
   162)      7090.1  Rx     18FF1100  8  28 00 20 34 21 40 01 00 
   163)      7091.0  Rx     18FF1200  8  00 00 00 00 00 00 00 00 
   164)      7092.0  Rx     18FF0F00  8  00 00 00 00 00 00 00 00 
   165)      7175.9  Rx     18FF3000  8  35 00 04 00 39 00 39 00 
   166)      7180.9  Rx     0CC8C8C7  8  00 00 00 80 0A 0A 00 00 
   167)      7181.2  Rx     0CC7C8C7  8  00 80 00 80 00 80 00 00 
   168)      7181.5  Rx     0CC9C8C7  8  00 80 00 80 B4 80 32 80 
   169)      7230.9  Rx     18FF0800  8  80 32 00 3A 02 28 00 00 
   170)      7240.5  Rx     18FF0000  8  00 00 00 00 00 00 00 00 
   171)      7241.1  Rx     18FF0100  8  00 00 00 00 00 00 00 00 
   172)      7242.0  Rx     18FF0200  8  00 00 00 00 00 00 00 00 
   173)      7243.0  Rx     18FF0300  8  00 00 00 00 00 00 00 00 
   174)      7244.0  Rx     18FF0400  8  00 00 00 00 00 00 00 00 
   175)      7245.0  Rx     18FF0900  8  00 00 00 00 00 00 00 00 
   176)      7246.0  Rx     18FF1300  8  00 00 00 00 00 00 00 00 
   177)      7247.0  Rx     18FF3100  8  00 00 00 00 00 00 00 00 
   178)      7248.0  Rx     18FF3200  8  00 00 00 00 00 00 00 00 
   179)      7249.0  Rx     18FF3300  8  00 00 00 00 00 00 00 00 
   180)      7250.0  Rx     18FF3400  8  00 00 00 00 00 00 00 00 
   181)      7251.0  Rx     18FF3500  8  00 00 00 00 00 00 00 00 
   182)      7252.0  Rx     18FF3600  8  00 00 00 00 00 00 00 00 
   183)      7293.3  Rx     18FF6700  8  00 00 00 00 00 00 00 00 
   184)      7385.9  Rx     18FF0800  8  80 32 00 3A 02 28 00 00 
   185)      7417.0  Rx     18FF0000  8  00 00 00 00 00 00 00 00 
   186)      7417.4  Rx     18FF0100  8  00 00 00 00 00 00 00 00 
   187)      7418.2  Rx     18FF0200  8  00 00 00 00 00 00 00 00 
   188)      7419.0  Rx     18FF0300  8  00 00 00 00 00 00 00 00 
   189)      7420.0  Rx     18FF0400  8  00 00 00 00 00 00 00 00 
   190)      7421.0  Rx     18FF0900  8  00 00 00 00 00 00 00 00 
   191)      7422.0  Rx     18FF1300  8  00 00 00 00 00 00 00 00 
   192)      7423.0  Rx     18FF3100  8  00 00 00 00 00 00 00 00 
   193)      7424.0  Rx     18FF3200  8  00 00 00 00 00 00 00 00 
   194)      7425.0  Rx     18FF3300  8  00 00 00 00 00 00 00 00 
   195)      7425.9  Rx     18FF3000  8  35 00 04 00 39 00 39 00 
   196)      7426.2  Rx     18FF3400  8  00 00 00 00 00 00 00 00 
   197)      7427.0  Rx     18FF3500  8  00 00 00 00 00 00 00 00 
   198)      7428.0  Rx     18FF3600  8  00 00 00 00 00 00 00 00 
   199)      7430.9  Rx     0CC8C8C7  8  00 00 00 80 0A 0A 00 00 
   200)      7431.2  Rx     0CC7C8C7  8  00 80 00 80 00 80 00 00 
   201)      7431.4  Rx     0CC9C8C7  8  00 80 00 80 B4 80 32 80 
   202)      7469.4  Rx     18FF6700  8  00 00 00 00 00 00 00 00 
   203)      7540.9  Rx     18FF0800  8  80 32 00 3A 02 28 00 00 
   204)      7573.5  Rx     18FF0000  8  00 00 00 00 00 00 00 00 
   205)      7574.1  Rx     18FF0100  8  00 00 00 00 00 00 00 00 
   206)      7575.0  Rx     18FF0200  8  00 00 00 00 00 00 00 00 
   207)      7576.0  Rx     18FF0300  8  00 00 00 00 00 00 00 00 
   208)      7577.0  Rx     18FF0400  8  00 00 00 00 00 00 00 00 
   209)      7578.0  Rx     18FF0900  8  00 00 00 00 00 00 00 00 
   210)      7579.0  Rx     18FF1300  8  00 00 00 00 00 00 00 00 
   211)      7580.0  Rx     18FF3100  8  00 00 00 00 00 00 00 00 
   212)      7581.0  Rx     18FF3200  8  00 00 00 00 00 00 00 00 
   213)      7582.0  Rx     18FF3300  8  00 00 00 00 00 00 00 00 
   214)      7583.0  Rx     18FF3400  8  00 00 00 00 00 00 00 00 
   215)      7584.0  Rx     18FF3500  8  00 00 00 00 00 00 00 00 
   216)      7585.0  Rx     18FF3600  8  00 00 00 00 00 00 00 00 
   217)      7626.3  Rx     18FF6700  8  00 00 00 00 00 00 00 00 
   218)      7675.9  Rx     18FF3000  8  35 00 04 00 39 00 39 00 
   219)      7680.9  Rx     0CC8C8C7  8  00 00 00 80 0A 0A 00 00 
   220)      7681.2  Rx     0CC7C8C7  8  00 80 00 80 00 80 00 00 
   221)      7681.4  Rx     0CC9C8C7  8  00 80 00 80 B4 80 32 80 
   222)      7695.8  Rx     18FF0800  8  80 32 00 3A 02 28 00 00 
   223)      7730.4  Rx     18FF0000  8  00 00 00 00 00 00 00 00 
   224)      7730.8  Rx     18FF0100  8  00 00 00 00 00 00 00 00 
   225)      7731.2  Rx     18FF0200  8  00 00 00 00 00 00 00 00 
   226)      7732.0  Rx     18FF0300  8  00 00 00 00 00 00 00 00 
   227)      7733.0  Rx     18FF0400  8  00 00 00 00 00 00 00 00 
   228)      7734.0  Rx     18FF0900  8  00 00 00 00 00 00 00 00 
   229)      7735.0  Rx     18FF1300  8  00 00 00 00 00 00 00 00 
   230)      7736.0  Rx     18FF3100  8  00 00 00 00 00 00 00 00 
   231)      7737.0  Rx     18FF3200  8  00 00 00 00 00 00 00 00 
   232)      7738.0  Rx     18FF3300  8  00 00 00 00 00 00 00 00 
   233)      7739.0  Rx     18FF3400  8  00 00 00 00 00 00 00 00 
   234)      7740.0  Rx     18FF3500  8  00 00 00 00 00 00 00 00 
   235)      7741.0  Rx     18FF3600  8  00 00 00 00 00 00 00 00 
   236)      7782.3  Rx     18FF6700  8  00 00 00 00 00 00 00 00 
   237)      7850.8  Rx     18FF0800  8  80 32 00 3A 02 28 00 00 
   238)      7905.8  Rx     18FECA00  8  00 FF 00 00 00 00 FF FF 
   239)      7906.1  Rx     18FF0000  8  00 00 00 00 00 00 00 00 
   240)      7906.4  Rx     18FF0100  8  00 00 00 00 00 00 00 00 
   241)      7907.2  Rx     18FF0200  8  00 00 00 00 00 00 00 00 
   242)      7908.0  Rx     18FF0300  8  00 00 00 00 00 00 00 00 
   243)      7909.0  Rx     18FF0400  8  00 00 00 00 00 00 00 00 
   244)      7910.0  Rx     18FF0900  8  00 00 00 00 00 00 00 00 
   245)      7911.0  Rx     18FF1300  8  00 00 00 00 00 00 00 00 
   246)      7912.0  Rx     18FF3100  8  00 00 00 00 00 00 00 00 
   247)      7913.0  Rx     18FF3200  8  00 00 00 00 00 00 00 00 
   248)      7913.9  Rx     18FF3300  8  00 00 00 00 00 00 00 00 
   249)      7915.0  Rx     18FF3400  8  00 00 00 00 00 00 00 00 
   250)      7916.0  Rx     18FF3500  8  00 00 00 00 00 00 00 00 
   251)      7925.8  Rx     18FF3000  8  35 00 04 00 39 00 39 00 
   252)      7930.8  Rx     0CC8C8C7  8  00 00 00 80 0A 0A 00 00 
   253)      7931.1  Rx     0CC7C8C7  8  00 80 00 80 00 80 00 00 
   254)      7931.4  Rx     0CC9C8C7  8  00 80 00 80 B4 80 32 80 
   255)      7957.5  Rx     18FF3600  8  00 00 00 00 00 00 00 00 
   256)      7958.0  Rx     18FF6700  8  00 00 00 00 00 00 00 00 
   257)      8000.8  Rx     18FF0800  8  80 32 00 3A 02 28 00 00 
   258)      8061.4  Rx     18FF0000  8  00 00 00 00 00 00 00 00 
   259)      8061.7  Rx     18FF0100  8  00 00 00 00 00 00 00 00 
   260)      8062.2  Rx     18FF0200  8  00 00 00 00 00 00 00 00 
   261)      8063.0  Rx     18FF0300  8  00 00 00 00 00 00 00 00 
   262)      8064.0  Rx     18FF0400  8  00 00 00 00 00 00 00 00 
   263)      8065.0  Rx     18FF0900  8  00 00 00 00 00 00 00 00 
   264)      8066.0  Rx     18FF1300  8  00 00 00 00 00 00 00 00 
   265)      8066.9  Rx     18FF3100  8  00 00 00 00 00 00 00 00 
   266)      8068.0  Rx     18FF3200  8  00 00 00 00 00 00 00 00 
   267)      8069.0  Rx     18FF3300  8  00 00 00 00 00 00 00 00 
   268)      8070.0  Rx     18FF3400  8  00 00 00 00 00 00 00 00 
   269)      8071.0  Rx     18FF3500  8  00 00 00 00 00 00 00 00 
   270)      8072.0  Rx     18FF3600  8  00 00 00 00 00 00 00 00 
   271)      8113.3  Rx     18FF6700  8  00 00 00 00 00 00 00 00 
   272)      8155.8  Rx     18FF0800  8  80 32 00 3A 02 28 00 00 
   273)      8180.8  Rx     18FF3000  8  35 00 04 00 39 00 39 00 
   274)      8181.1  Rx     0CC8C8C7  8  00 00 00 80 0A 0A 00 00 
   275)      8181.4  Rx     0CC7C8C7  8  00 80 00 80 00 80 00 00 
   276)      8181.7  Rx     0CC9C8C7  8  00 80 00 80 B4 80 32 80 
   277)      8217.6  Rx     18FF0000  8  00 00 00 00 00 00 00 00 
   278)      8218.0  Rx     18FF0100  8  00 00 00 00 00 00 00 00 
   279)      8219.2  Rx     18FF0200  8  00 00 00 00 00 00 00 00 
   280)      8220.0  Rx     18FF0300  8  00 00 00 00 00 00 00 00 
   281)      8221.0  Rx     18FF0400  8  00 00 00 00 00 00 00 00 
   282)      8222.0  Rx     18FF0900  8  00 00 00 00 00 00 00 00 
   283)      8223.0  Rx     18FF1300  8  00 00 00 00 00 00 00 00 
   284)      8224.0  Rx     18FF3100  8  00 00 00 00 00 00 00 00 
   285)      8225.0  Rx     18FF3200  8  00 00 00 00 00 00 00 00 
   286)      8226.0  Rx     18FF3300  8  00 00 00 00 00 00 00 00 
   287)      8227.0  Rx     18FF3400  8  00 00 00 00 00 00 00 00 
   288)      8228.0  Rx     18FF3500  8  00 00 00 00 00 00 00 00 
   289)      8229.0  Rx     18FF3600  8  00 00 00 00 00 00 00 00 
   290)      8270.3  Rx     18FF6700  8  00 00 00 00 00 00 00 00 
   291)      8310.8  Rx     18FF0800  8  80 32 00 3A 02 28 00 00 
   292)      8394.2  Rx     18FF0000  8  00 00 00 00 00 00 00 00 
   293)      8394.6  Rx     18FF0100  8  00 00 00 00 00 00 00 00 
   294)      8395.2  Rx     18FF0200  8  00 00 00 00 00 00 00 00 
   295)      8396.0  Rx     18FF0300  8  00 00 00 00 00 00 00 00 
   296)      8397.0  Rx     18FF0400  8  00 00 00 00 00 00 00 00 
   297)      8398.0  Rx     18FF0900  8  00 00 00 00 00 00 00 00 
   298)      8398.9  Rx     18FF1300  8  00 00 00 00 00 00 00 00 
   299)      8400.0  Rx     18FF3100  8  00 00 00 00 00 00 00 00 
   300)      8401.0  Rx     18FF3200  8  00 00 00 00 00 00 00 00 
   301)      8402.0  Rx     18FF3300  8  00 00 00 00 00 00 00 00 
   302)      8403.0  Rx     18FF3400  8  00 00 00 00 00 00 00 00 
   303)      8404.0  Rx     18FF3500  8  00 00 00 00 00 00 00 00 
   304)      8405.0  Rx     18FF3600  8  00 00 00 00 00 00 00 00 
   305)      8425.8  Rx     18FF3000  8  35 00 04 00 39 00 39 00 
   306)      8430.8  Rx     0CC8C8C7  8  00 00 00 80 0A 0A 00 00 
   307)      8431.1  Rx     0CC7C8C7  8  00 80 00 80 00 80 00 00 
   308)      8431.4  Rx     0CC9C8C7  8  00 80 00 80 B4 80 32 80 
   309)      8446.4  Rx     18FF6700  8  00 00 00 00 00 00 00 00 
   310)      8465.8  Rx     18FF0800  8  80 32 00 3A 02 28 00 00 
   311)      8550.8  Rx     18FF0000  8  00 00 00 00 00 00 00 00 
   312)      8551.1  Rx     18FF0100  8  00 00 00 00 00 00 00 00 
   313)      8552.2  Rx     18FF0200  8  00 00 00 00 00 00 00 00 
   314)      8553.0  Rx     18FF0300  8  00 00 00 00 00 00 00 00 
   315)      8554.0  Rx     18FF0400  8  00 00 00 00 00 00 00 00 
   316)      8555.0  Rx     18FF0900  8  00 00 00 00 00 00 00 00 
   317)      8556.0  Rx     18FF1300  8  00 00 00 00 00 00 00 00 
   318)      8557.0  Rx     18FF3100  8  00 00 00 00 00 00 00 00 
   319)      8558.0  Rx     18FF3200  8  00 00 00 00 00 00 00 00 
   320)      8558.9  Rx     18FF3300  8  00 00 00 00 00 00 00 00 
   321)      8560.0  Rx     18FF3400  8  00 00 00 00 00 00 00 00 
   322)      8560.9  Rx     18FF3500  8  00 00 00 00 00 00 00 00 
   323)      8562.0  Rx     18FF3600  8  00 00 00 00 00 00 00 00 
   324)      8603.5  Rx     18FF6700  8  00 00 00 00 00 00 00 00 
   325)      8615.8  Rx     18FF0800  8  80 32 00 3A 02 28 00 00 
   326)      8675.8  Rx     18FF3000  8  35 00 04 00 39 00 39 00 
   327)      8680.8  Rx     0CC8C8C7  8  00 00 00 80 0A 0A 00 00 
   328)      8681.1  Rx     0CC7C8C7  8  00 80 00 80 00 80 00 00 
   329)      8681.3  Rx     0CC9C8C7  8  00 80 00 80 B4 80 32 80 
   330)      8707.5  Rx     18FF0000  8  00 00 00 00 00 00 00 00 
   331)      8707.8  Rx     18FF0100  8  00 00 00 00 00 00 00 00 
   332)      8708.4  Rx     18FF0200  8  00 00 00 00 00 00 00 00 
   333)      8709.0  Rx     18FF0300  8  00 00 00 00 00 00 00 00 
   334)      8710.0  Rx     18FF0400  8  00 00 00 00 00 00 00 00 
   335)      8711.0  Rx     18FF0900  8  00 00 00 00 00 00 00 00 
   336)      8711.9  Rx     18FF1300  8  00 00 00 00 00 00 00 00 
   337)      8713.0  Rx     18FF3100  8  00 00 00 00 00 00 00 00 
   338)      8713.9  Rx     18FF3200  8  00 00 00 00 00 00 00 00 
   339)      8715.0  Rx     18FF3300  8  00 00 00 00 00 00 00 00 
   340)      8716.0  Rx     18FF3400  8  00 00 00 00 00 00 00 00 
   341)      8717.0  Rx     18FF3500  8  00 00 00 00 00 00 00 00 
   342)      8718.0  Rx     18FF3600  8  00 00 00 00 00 00 00 00 
   343)      8759.9  Rx     18FF6700  8  00 00 00 00 00 00 00 00 
   344)      8770.7  Rx     18FF0800  8  80 32 00 3A 02 28 00 00 
   345)      8883.8  Rx     18FF0000  8  00 00 00 00 00 00 00 00 
   346)      8884.1  Rx     18FF0100  8  00 00 00 00 00 00 00 00 
   347)      8885.3  Rx     18FF0200  8  00 00 00 00 00 00 00 00 
   348)      8886.0  Rx     18FF0300  8  00 00 00 00 00 00 00 00 
   349)      8887.0  Rx     18FF0400  8  00 00 00 00 00 00 00 00 
   350)      8887.9  Rx     18FF0900  8  00 00 00 00 00 00 00 00 
   351)      8889.0  Rx     18FF1300  8  00 00 00 00 00 00 00 00 
   352)      8889.9  Rx     18FF3100  8  00 00 00 00 00 00 00 00 
   353)      8891.0  Rx     18FF3200  8  00 00 00 00 00 00 00 00 
   354)      8892.0  Rx     18FF3300  8  00 00 00 00 00 00 00 00 
   355)      8892.9  Rx     18FF3400  8  00 00 00 00 00 00 00 00 
   356)      8894.0  Rx     18FF3500  8  00 00 00 00 00 00 00 00 
   357)      8894.9  Rx     18FF3600  8  00 00 00 00 00 00 00 00 
   358)      8925.7  Rx     18FF0800  8  80 32 00 3A 02 28 00 00 
   359)      8926.0  Rx     18FF3000  8  35 00 04 00 39 00 39 00 
   360)      8930.7  Rx     0CC8C8C7  8  00 00 00 80 0A 0A 00 00 
   361)      8931.0  Rx     0CC7C8C7  8  00 80 00 80 00 80 00 00 
   362)      8931.3  Rx     0CC9C8C7  8  00 80 00 80 B4 80 32 80 
   363)      8936.7  Rx     18FF6700  8  00 00 00 00 00 00 00 00 
   364)      8988.3  Rx     18FECA00  8  00 FF 00 00 00 00 FF FF 
   365)      9075.7  Rx     18FF0800  8  80 32 00 3A 02 28 00 00 
   366)      9092.5  Rx     18FF0000  8  00 00 00 00 00 00 00 00 
